!    13.04.2021   19:07:05 
! Ref Plane: 0,000 mm
# MHZ S MA R  50
!
10,0000       0,99316       -3,04         7,221E-4      1,52          4,60E-6       74,00         0,00588       -9,99          
39,9500       0,98724       -10,58        1,034E-2      -23,05        5,667E-6      -173,60       0,00589       -25,97         
69,9000       0,98206       -18,14        2,297E-2      -48,11        2,434E-5      173,92        0,00634       -41,86         
99,8500       0,97432       -25,60        3,374E-2      -68,14        3,987E-5      179,65        0,00676       -56,85         
129,8000      0,95918       -33,10        3,974E-2      -91,33        7,619E-5      179,52        0,00698       -71,44         
159,7500      0,95272       -39,71        4,279E-2      -104,14       1,239E-4      164,54        0,00714       -88,14         
189,7000      0,94801       -46,12        5,128E-2      -112,55       1,959E-4      148,48        0,00747       -105,69        
219,6500      0,94393       -53,19        7,784E-2      -123,86       2,89E-4       138,77        0,00792       -122,97        
249,6000      0,94118       -60,35        1,14E-1       -138,38       4,195E-4      125,32        0,00827       -139,20        
279,5500      0,93857       -66,72        1,431E-1      -155,28       5,694E-4      112,11        0,00767       -154,14        
309,5000      0,93229       -72,53        1,599E-1      -172,00       7,253E-4      97,13         0,0086        -167,06        
339,4500      0,92682       -79,02        1,944E-1      169,72        8,91E-4       81,68         0,00806       177,58         
369,4000      0,918         -85,39        2,313E-1      150,84        1,044E-3      64,73         0,00745       163,58         
399,3500      0,91063       -91,83        2,634E-1      135,29        1,193E-3      49,57         0,00713       153,50         
429,3000      0,90303       -96,94        2,657E-1      119,59        1,301E-3      34,42         0,00728       147,33         
459,2500      0,89761       -101,42       2,595E-1      104,51        1,382E-3      20,78         0,00634       145,88         
489,2000      0,88674       -108,32       3,10E-1       90,77         1,437E-3      8,23          0,00586       148,11         
519,1500      0,87564       -114,35       3,476E-1      77,13         1,479E-3      -3,16         0,00567       150,21         
549,1000      0,86779       -119,29       3,403E-1      64,72         1,502E-3      -15,65        0,00595       151,56         
579,0500      0,86625       -123,72       3,111E-1      53,37         1,486E-3      -25,29        0,00657       147,78         
609,0000      0,87062       -127,70       2,771E-1      47,99         1,537E-3      -30,29        0,00668       143,32         
638,9500      0,85843       -133,17       3,129E-1      36,59         1,639E-3      -40,19        0,00711       145,36         
668,9000      0,8511        -139,35       3,501E-1      26,69         1,641E-3      -49,90        0,00785       147,19         
698,8500      0,84973       -143,53       3,403E-1      17,01         1,667E-3      -58,14        0,0082        149,12         
728,8000      0,85171       -146,95       3,076E-1      7,68          1,713E-3      -65,77        0,00831       150,17         
758,7500      0,84471       -152,88       3,377E-1      -0,42         1,749E-3      -74,06        0,00846       146,93         
788,7000      0,83395       -159,21       3,761E-1      -9,14         1,789E-3      -82,16        0,00866       141,15         
818,6500      0,82716       -164,10       3,729E-1      -17,84        1,834E-3      -90,27        0,00908       135,20         
848,6000      0,82653       -167,64       3,455E-1      -26,13        1,853E-3      -97,54        0,00967       129,88         
878,5500      0,82067       -170,10       2,998E-1      -35,69        1,87E-3       -105,06       0,01032       125,71         
908,5000      0,81507       -174,82       3,098E-1      -42,54        1,894E-3      -112,61       0,01087       122,84         
938,4500      0,80324       179,17        3,372E-1      -50,70        1,906E-3      -119,13       0,01101       120,44         
968,4000      0,79018       174,43        3,385E-1      -58,59        1,969E-3      -125,52       0,01089       117,19         
998,3500      0,78703       170,22        3,313E-1      -65,99        2,031E-3      -132,52       0,01098       112,07         
1028,3000     0,77658       165,97        3,277E-1      -73,68        2,073E-3      -139,31       0,0114        106,64         
1058,2500     0,76159       160,13        3,517E-1      -81,84        2,121E-3      -147,51       0,01182       103,01         
1088,2000     0,74942       154,68        3,662E-1      -89,82        2,152E-3      -154,15       0,01201       100,44         
1118,1500     0,74524       151,39        3,435E-1      -96,60        2,185E-3      -160,80       0,01208       98,06          
1148,1000     0,74536       148,85        3,085E-1      -102,93       2,247E-3      -167,98       0,01223       95,71          
1178,0500     0,73799       144,23        3,067E-1      -109,49       2,294E-3      -174,84       0,01224       94,88          
1208,0000     0,71237       137,07        3,395E-1      -119,07       2,365E-3      178,31        0,01159       93,70          
1237,9500     0,69596       130,87        3,566E-1      -127,84       2,414E-3      171,42        0,01069       89,30          
1267,9000     0,68624       126,38        3,447E-1      -134,95       2,458E-3      163,61        0,01053       81,45          
1297,8500     0,68846       123,99        3,076E-1      -141,13       2,497E-3      156,26        0,01119       76,84          
1327,8000     0,67166       118,59        3,075E-1      -149,12       2,542E-3      149,27        0,01184       76,80          
1357,7500     0,64116       110,50        3,333E-1      -159,08       2,619E-3      142,11        0,01187       78,29          
1387,7000     0,61633       103,61        3,385E-1      -166,82       2,694E-3      134,70        0,01119       78,31          
1417,6500     0,59992       99,15         3,258E-1      -173,76       2,771E-3      126,95        0,01044       75,78          
1447,6000     0,58616       93,46         3,225E-1      -179,52       2,827E-3      118,81        0,01001       72,25          
1477,5500     0,57002       88,96         3,138E-1      173,23        2,835E-3      110,24        0,00983       69,86          
1507,5000     0,56816       81,76         3,172E-1      167,56        2,839E-3      101,82        0,00977       67,52          
1537,4500     0,54902       76,35         3,134E-1      159,51        2,817E-3      94,84         0,00986       64,68          
1567,4000     0,56141       71,97         2,918E-1      159,03        2,845E-3      88,20         0,01026       62,47          
1597,3500     0,51747       60,40         3,095E-1      149,69        2,925E-3      81,47         0,0104        63,26          
1627,3000     0,45031       40,81         3,484E-1      138,96        2,97E-3       72,95         0,00985       64,59          
1657,2500     0,40994       29,73         3,498E-1      130,89        2,99E-3       64,12         0,00907       63,15          
1687,2000     0,41341       25,59         3,304E-1      126,38        3,00E-3       55,67         0,00863       58,97          
1717,1500     0,37307       15,50         3,262E-1      117,96        2,934E-3      47,38         0,00864       54,43          
1747,1000     0,34214       -0,14         3,321E-1      108,02        2,861E-3      39,89         0,00887       51,10          
1777,0500     0,31853       -21,52        3,445E-1      97,30         2,831E-3      33,15         0,00904       48,94          
1807,0000     0,29312       -39,13        3,432E-1      87,56         2,808E-3      26,82         0,0091        47,30          
1836,9500     0,28619       -57,91        3,463E-1      78,30         2,802E-3      19,85         0,00895       46,53          
1866,9000     0,29871       -74,73        3,535E-1      68,69         2,768E-3      12,70         0,0085        45,81          
1896,8500     0,32323       -90,68        3,635E-1      58,97         2,764E-3      5,17          0,00785       43,97          
1926,8000     0,34051       -99,51        3,593E-1      50,74         2,735E-3      -1,92         0,0073        39,74          
1956,7500     0,36673       -109,32       3,581E-1      41,52         2,675E-3      -8,70         0,00709       32,88          
1986,7000     0,40198       -121,41       3,716E-1      31,26         2,644E-3      -15,60        0,00734       27,27          
2016,6500     0,43683       -131,03       3,816E-1      20,90         2,628E-3      -21,67        0,00765       26,43          
2046,6000     0,45769       -137,88       3,809E-1      12,45         2,599E-3      -27,84        0,00753       28,74          
2076,5500     0,47327       -142,78       3,751E-1      5,24          2,574E-3      -34,19        0,00694       30,64          
2106,5000     0,49899       -149,89       3,819E-1      -3,97         2,564E-3      -41,11        0,00613       30,63          
2136,4500     0,52141       -157,83       3,959E-1      -13,51        2,533E-3      -48,06        0,00535       26,12          
2166,4000     0,53557       -164,13       4,074E-1      -21,29        2,519E-3      -53,89        0,00495       19,22          
2196,3500     0,54541       -167,08       3,945E-1      -28,01        2,497E-3      -60,37        0,00486       14,49          
2226,3000     0,55538       -170,61       3,828E-1      -34,50        2,502E-3      -65,74        0,00492       13,72          
2256,2500     0,56232       -176,28       3,969E-1      -41,75        2,481E-3      -72,11        0,00506       17,51          
2286,2000     0,56811       178,07        4,175E-1      -49,11        2,477E-3      -78,20        0,0049        24,64          
2316,1500     0,56882       173,68        4,274E-1      -56,25        2,474E-3      -84,96        0,0045        33,00          
2346,1000     0,57323       170,68        4,256E-1      -63,02        2,501E-3      -90,72        0,0039        40,97          
2376,0500     0,57772       168,04        4,211E-1      -69,79        2,498E-3      -97,56        0,00323       46,81          
2406,0000     0,57555       164,35        4,336E-1      -77,07        2,51E-3       -103,57       0,00283       46,31          
2435,9500     0,57139       160,87        4,50E-1       -84,47        2,488E-3      -110,29       0,00274       41,32          
2465,9000     0,57155       158,28        4,559E-1      -91,60        2,522E-3      -116,17       0,00309       37,24          
2495,8500     0,57217       155,93        4,582E-1      -98,76        2,501E-3      -122,75       0,0039        37,70          
2525,8000     0,57005       153,46        4,667E-1      -106,08       2,515E-3      -129,06       0,00486       45,12          
2555,7500     0,56781       151,20        4,76E-1       -113,45       2,53E-3       -136,58       0,00539       55,52          
2585,7000     0,56799       149,23        4,795E-1      -120,77       2,535E-3      -142,87       0,00541       63,37          
2615,6500     0,57119       147,48        4,776E-1      -127,97       2,538E-3      -149,48       0,00504       68,04          
2645,6000     0,57514       145,82        4,765E-1      -135,21       2,551E-3      -156,11       0,00451       65,30          
2675,5500     0,57391       143,95        4,858E-1      -142,75       2,525E-3      -162,67       0,00435       55,13          
2705,5000     0,5719        142,06        4,98E-1       -150,36       2,547E-3      -169,78       0,00474       43,15          
2735,4500     0,5733        140,38        5,036E-1      -157,89       2,536E-3      -176,55       0,00574       36,58          
2765,4000     0,57891       138,83        5,011E-1      -165,30       2,551E-3      176,31        0,00669       38,01          
2795,3500     0,58774       137,26        4,938E-1      -172,63       2,525E-3      169,49        0,00693       41,95          
2825,3000     0,59563       135,67        4,895E-1      -179,97       2,507E-3      161,98        0,00657       44,13          
2855,2500     0,59932       133,99        4,944E-1      172,50        2,504E-3      155,74        0,00581       42,09          
2885,2000     0,6036        132,22        4,982E-1      164,89        2,474E-3      148,80        0,00524       30,78          
2915,1500     0,61026       130,39        4,986E-1      157,40        2,446E-3      141,60        0,00564       17,29          
2945,1000     0,61718       128,48        4,967E-1      149,95        2,425E-3      134,44        0,00648       13,20          
2975,0500     0,62416       126,53        4,936E-1      142,61        2,403E-3      127,25        0,00693       15,36          
3005,0000     0,63145       124,45        4,887E-1      135,28        2,393E-3      120,95        0,00679       18,90          
3034,9500     0,63998       122,41        4,813E-1      128,17        2,349E-3      114,49        0,00611       22,13          
3064,9000     0,64831       120,31        4,715E-1      121,30        2,318E-3      107,72        0,00509       22,84          
3094,8500     0,6536        118,11        4,699E-1      114,09        2,288E-3      101,81        0,00412       17,47          
3124,8000     0,65784       115,84        4,753E-1      106,60        2,273E-3      95,27         0,00352       5,80           
3154,7500     0,6616        113,55        4,763E-1      99,30         2,241E-3      88,47         0,00355       -7,24          
3184,7000     0,66553       111,25        4,734E-1      92,42         2,223E-3      81,49         0,004         -13,87         
3214,6500     0,66959       108,85        4,641E-1      85,72         2,177E-3      75,17         0,00461       -11,14         
3244,6000     0,67418       106,55        4,527E-1      79,10         2,166E-3      69,17         0,00493       -1,07          
3274,5500     0,67512       104,22        4,508E-1      72,32         2,116E-3      63,22         0,0048        13,01          
3304,5000     0,67481       101,73        4,545E-1      65,34         2,079E-3      56,87         0,00431       28,59          
3334,4500     0,67575       99,26         4,559E-1      58,30         2,07E-3       50,98         0,00342       42,55          
3364,4000     0,67368       96,93         4,559E-1      51,55         2,074E-3      44,19         0,00243       49,01          
3394,3500     0,67049       94,47         4,516E-1      44,87         2,05E-3       38,18         0,00184       36,06          
3424,3000     0,66753       91,98         4,478E-1      38,04         2,032E-3      31,96         0,00238       18,49          
3454,2500     0,66471       89,66         4,455E-1      31,47         2,014E-3      25,88         0,00343       21,60          
3484,2000     0,65796       87,27         4,41E-1       24,88         1,989E-3      20,03         0,00438       32,33          
3514,1500     0,65201       84,80         4,429E-1      17,92         1,973E-3      14,13         0,00489       44,45          
3544,1000     0,64431       82,49         4,527E-1      11,12         1,971E-3      7,48          0,00494       53,18          
3574,0500     0,63392       80,13         4,579E-1      4,48          1,978E-3      0,91          0,00463       56,73          
3604,0000     0,62378       77,87         4,585E-1      -2,49         1,972E-3      -5,16         0,00443       54,34          
3633,9500     0,61379       76,01         4,527E-1      -9,43         1,98E-3       -10,64        0,00455       47,16          
3663,9000     0,60432       74,82         4,345E-1      -16,28        1,949E-3      -17,57        0,00508       39,54          
3693,8500     0,59504       73,11         4,302E-1      -22,98        1,951E-3      -24,33        0,00603       35,72          
3723,8000     0,58117       70,51         4,47E-1       -29,63        1,942E-3      -30,55        0,00708       37,93          
3753,7500     0,56569       68,21         4,616E-1      -36,38        1,942E-3      -36,89        0,00775       43,52          
3783,7000     0,55099       66,45         4,655E-1      -43,27        1,956E-3      -43,73        0,00769       48,92          
3813,6500     0,53696       64,96         4,656E-1      -50,27        1,962E-3      -50,42        0,00705       50,79          
3843,6000     0,52412       63,67         4,646E-1      -57,22        1,959E-3      -57,34        0,00621       47,28          
3873,5500     0,51175       62,56         4,628E-1      -64,04        1,95E-3       -64,27        0,00587       39,06          
3903,5000     0,49971       61,56         4,604E-1      -70,90        1,938E-3      -71,05        0,00628       28,05          
3933,4500     0,48501       60,45         4,652E-1      -77,97        1,93E-3       -77,93        0,00734       22,24          
3963,4000     0,46563       59,54         4,766E-1      -85,30        1,936E-3      -85,02        0,00837       23,00          
3993,3500     0,44365       59,08         4,911E-1      -92,99        1,945E-3      -92,23        0,00885       26,57          
4023,3000     0,42617       59,10         5,00E-1       -100,54       1,939E-3      -99,34        0,00866       28,66          
4053,2500     0,41754       59,18         4,984E-1      -107,58       1,914E-3      -106,55       0,00818       27,28          
4083,2000     0,41317       59,04         4,911E-1      -114,26       1,879E-3      -113,95       0,00794       22,84          
4113,1500     0,40541       59,33         4,91E-1       -121,40       1,871E-3      -120,86       0,00807       17,94          
4143,1000     0,3891        61,11         5,101E-1      -129,82       1,862E-3      -127,82       0,00831       12,31          
4173,0500     0,3769        63,68         5,301E-1      -138,33       1,853E-3      -135,87       0,00892       6,63           
4203,0000     0,37229       66,01         5,425E-1      -146,55       1,826E-3      -143,22       0,00999       4,94           
4232,9500     0,37374       67,59         5,482E-1      -154,41       1,789E-3      -150,83       0,01071       8,04           
4262,9000     0,37843       68,31         5,463E-1      -161,76       1,782E-3      -157,63       0,01038       11,36          
4292,8500     0,38336       69,14         5,466E-1      -169,32       1,751E-3      -164,48       0,00922       10,16          
4322,8000     0,39014       69,88         5,489E-1      -176,96       1,72E-3       -171,76       0,0083        -0,15          
4352,7500     0,39956       70,66         5,536E-1      175,22        1,699E-3      -179,62       0,00873       -14,43         
4382,7000     0,41184       71,55         5,615E-1      167,03        1,684E-3      172,92        0,01021       -21,24         
4412,6500     0,4294        72,77         5,768E-1      158,39        1,661E-3      165,40        0,0116        -21,77         
4442,6000     0,44944       73,47         5,914E-1      149,84        1,646E-3      157,85        0,0123        -19,58         
4472,5500     0,46755       73,43         6,014E-1      141,60        1,599E-3      150,79        0,01199       -16,92         
4502,5000     0,4811        72,80         6,038E-1      133,67        1,592E-3      142,74        0,01052       -16,64         
4532,4500     0,48806       71,84         5,986E-1      125,97        1,53E-3       135,52        0,00849       -25,24         
4562,4000     0,49316       70,80         5,937E-1      117,99        1,512E-3      127,41        0,00792       -44,27         
4592,3500     0,51163       70,03         6,065E-1      109,20        1,519E-3      119,45        0,0093        -57,51         
