!    13.04.2021   19:06:38 
! Ref Plane: 0,000 mm
# MHZ S MA R  50
!
10,0000       0,99373       -3,19         7,667E-4      2,07          7,908E-6      113,63        0,00588       -9,99          
39,9500       0,9866        -10,89        1,228E-2      -17,81        1,182E-5      157,13        0,00593       -26,05         
69,9000       0,98416       -18,82        3,487E-2      -37,64        2,482E-5      164,35        0,00636       -41,69         
99,8500       0,98052       -26,57        6,379E-2      -55,88        3,309E-5      178,59        0,00675       -56,60         
129,8000      0,96555       -34,65        8,469E-2      -79,72        6,806E-5      171,67        0,00696       -71,45         
159,7500      0,94755       -41,63        8,128E-2      -98,97        1,081E-4      160,90        0,00713       -88,40         
189,7000      0,93666       -48,13        8,86E-2       -110,73       1,722E-4      144,10        0,00752       -105,96        
219,6500      0,93095       -55,50        1,331E-1      -122,60       2,503E-4      135,11        0,008         -123,02        
249,6000      0,92825       -62,90        1,941E-1      -137,10       3,617E-4      122,28        0,00837       -139,14        
279,5500      0,92424       -69,36        2,411E-1      -154,23       4,914E-4      109,97        0,00779       -154,37        
309,5000      0,91627       -75,24        2,693E-1      -171,28       6,298E-4      95,11         0,00872       -167,89        
339,4500      0,90959       -81,94        3,288E-1      170,24        7,668E-4      79,94         0,00819       176,08         
369,4000      0,89825       -88,47        3,902E-1      151,27        9,024E-4      63,11         0,00757       161,40         
399,3500      0,8885        -95,08        4,455E-1      135,33        1,037E-3      48,03         0,00716       150,79         
429,3000      0,8771        -100,04       4,518E-1      119,06        1,131E-3      32,51         0,00713       144,55         
459,2500      0,86875       -104,29       4,417E-1      103,57        1,196E-3      18,72         0,00602       143,30         
489,2000      0,85335       -111,60       5,304E-1      89,40         1,239E-3      5,80          0,00546       146,74         
519,1500      0,84014       -117,75       5,878E-1      76,05         1,268E-3      -5,92         0,00527       150,20         
549,1000      0,83078       -122,46       5,738E-1      63,21         1,282E-3      -18,35        0,00564       152,75         
579,0500      0,83023       -126,68       5,246E-1      51,60         1,263E-3      -27,55        0,00634       149,52         
609,0000      0,83511       -130,72       4,739E-1      45,85         1,293E-3      -32,40        0,00645       145,36         
638,9500      0,82068       -136,29       5,314E-1      34,59         1,389E-3      -42,13        0,00691       148,10         
668,9000      0,8101        -142,39       5,819E-1      24,15         1,399E-3      -51,60        0,00769       150,13         
698,8500      0,808         -146,61       5,70E-1       14,23         1,409E-3      -60,09        0,00812       151,76         
728,8000      0,81081       -149,91       5,191E-1      4,64          1,45E-3       -67,86        0,00833       152,08         
758,7500      0,79908       -155,99       5,668E-1      -4,18         1,473E-3      -75,83        0,00857       148,27         
788,7000      0,78258       -162,25       6,221E-1      -13,63        1,501E-3      -84,09        0,00884       142,16         
818,6500      0,77613       -167,03       6,132E-1      -22,46        1,533E-3      -91,69        0,00933       136,31         
848,6000      0,7773        -170,65       5,718E-1      -30,90        1,553E-3      -98,46        0,00992       131,42         
878,5500      0,77712       -173,42       5,094E-1      -39,51        1,563E-3      -106,44       0,01053       127,47         
908,5000      0,76878       -178,14       5,187E-1      -47,27        1,582E-3      -113,17       0,01101       124,29         
938,4500      0,75153       175,89        5,579E-1      -55,98        1,604E-3      -120,14       0,01114       121,33         
968,4000      0,73774       171,09        5,608E-1      -64,20        1,655E-3      -126,51       0,01104       117,36         
998,3500      0,73381       166,90        5,416E-1      -71,86        1,691E-3      -133,41       0,01118       111,74         
1028,3000     0,72314       162,38        5,404E-1      -79,65        1,738E-3      -139,96       0,01166       106,38         
1058,2500     0,7045        156,67        5,721E-1      -88,10        1,771E-3      -147,99       0,01211       103,05         
1088,2000     0,69117       151,26        5,835E-1      -95,84        1,793E-3      -153,99       0,01228       100,79         
1118,1500     0,68632       147,56        5,531E-1      -102,99       1,821E-3      -160,93       0,0123        98,38          
1148,1000     0,68547       144,70        5,033E-1      -109,61       1,877E-3      -168,43       0,01238       95,70          
1178,0500     0,6733        139,52        5,046E-1      -116,80       1,934E-3      -174,93       0,01235       94,39          
1208,0000     0,64263       131,92        5,528E-1      -126,32       1,984E-3      178,28        0,01172       92,77          
1237,9500     0,61964       125,71        5,677E-1      -134,76       2,025E-3      171,57        0,01089       88,28          
1267,9000     0,60859       121,01        5,461E-1      -142,07       2,05E-3       163,82        0,0108        80,69          
1297,8500     0,60734       117,82        4,991E-1      -148,45       2,094E-3      156,85        0,01144       76,40          
1327,8000     0,58261       112,10        4,999E-1      -156,66       2,136E-3      149,64        0,01199       76,32          
1357,7500     0,54281       103,49        5,333E-1      -165,83       2,197E-3      142,37        0,01189       77,64          
1387,7000     0,511         96,06         5,437E-1      -174,33       2,256E-3      134,90        0,01114       77,21          
1417,6500     0,49809       91,46         5,218E-1      178,57        2,303E-3      127,24        0,01042       74,19          
1447,6000     0,47497       84,57         5,194E-1      171,30        2,346E-3      119,39        0,0101        70,23          
1477,5500     0,45711       78,70         5,073E-1      163,61        2,356E-3      111,42        0,01          67,99          
1507,5000     0,43698       70,73         5,04E-1       157,12        2,375E-3      103,44        0,00993       66,16          
1537,4500     0,41391       63,60         4,993E-1      149,23        2,383E-3      95,95         0,0099        63,88          
1567,4000     0,39049       54,71         4,863E-1      144,02        2,422E-3      89,04         0,01011       61,95          
1597,3500     0,33416       39,82         5,037E-1      133,84        2,463E-3      81,60         0,01011       62,59          
1627,3000     0,26301       17,68         5,323E-1      122,96        2,478E-3      73,49         0,00953       63,27          
1657,2500     0,23799       3,38          5,264E-1      114,95        2,477E-3      65,32         0,00881       61,00          
1687,2000     0,2367        -5,67         5,008E-1      109,35        2,484E-3      57,40         0,00851       56,34          
1717,1500     0,21016       -27,71        5,083E-1      99,50         2,455E-3      49,71         0,00864       52,26          
1747,1000     0,20956       -53,09        5,254E-1      88,95         2,433E-3      42,24         0,00886       50,15          
1777,0500     0,2242        -71,28        5,297E-1      80,07         2,417E-3      35,01         0,00891       49,06          
1807,0000     0,24526       -84,83        5,285E-1      71,68         2,392E-3      28,13         0,00883       47,89          
1836,9500     0,27569       -98,57        5,402E-1      62,44         2,377E-3      20,92         0,00857       46,89          
1866,9000     0,30685       -109,23       5,471E-1      53,52         2,352E-3      14,00         0,00811       45,36          
1896,8500     0,33672       -118,19       5,52E-1       44,96         2,341E-3      6,61          0,00756       42,75          
1926,8000     0,36143       -125,11       5,455E-1      37,03         2,324E-3      -0,21         0,00714       38,32          
1956,7500     0,389         -132,85       5,484E-1      28,36         2,291E-3      -7,11         0,00704       32,33          
1986,7000     0,41625       -140,49       5,615E-1      19,51         2,284E-3      -13,80        0,00728       27,90          
2016,6500     0,43825       -147,31       5,679E-1      11,22         2,264E-3      -20,25        0,00749       28,03          
2046,6000     0,45463       -152,62       5,618E-1      3,87          2,226E-3      -26,34        0,00727       30,53          
2076,5500     0,47129       -157,13       5,533E-1      -3,32         2,205E-3      -32,70        0,00663       32,09          
2106,5000     0,48382       -162,91       5,615E-1      -11,03        2,20E-3       -40,02        0,00584       31,08          
2136,4500     0,49144       -168,28       5,723E-1      -18,44        2,182E-3      -46,70        0,00521       25,71          
2166,4000     0,49921       -172,57       5,749E-1      -25,53        2,175E-3      -52,63        0,00495       19,36          
2196,3500     0,50864       -176,17       5,653E-1      -32,39        2,151E-3      -59,10        0,00493       16,54          
2226,3000     0,51527       -179,72       5,603E-1      -39,26        2,174E-3      -64,75        0,00497       17,49          
2256,2500     0,51884       176,48        5,688E-1      -46,30        2,133E-3      -71,02        0,00504       21,98          
2286,2000     0,52114       172,94        5,776E-1      -53,41        2,132E-3      -77,35        0,00482       28,83          
2316,1500     0,52419       169,81        5,797E-1      -60,40        2,137E-3      -83,84        0,00441       36,13          
2346,1000     0,52729       166,96        5,769E-1      -67,33        2,161E-3      -89,74        0,00385       41,90          
2376,0500     0,52977       164,31        5,749E-1      -74,31        2,149E-3      -96,82        0,00331       45,10          
2406,0000     0,53046       161,60        5,801E-1      -81,39        2,163E-3      -102,88       0,0031        43,59          
2435,9500     0,53116       159,01        5,846E-1      -88,55        2,154E-3      -109,92       0,00319       40,34          
2465,9000     0,53242       156,68        5,866E-1      -95,71        2,181E-3      -115,55       0,00355       38,90          
2495,8500     0,53347       154,56        5,887E-1      -102,85       2,134E-3      -122,30       0,00426       40,01          
2525,8000     0,5346        152,48        5,903E-1      -110,06       2,159E-3      -128,75       0,00504       46,46          
2555,7500     0,5356        150,48        5,921E-1      -117,37       2,165E-3      -136,03       0,00541       55,31          
2585,7000     0,53688       148,68        5,937E-1      -124,68       2,181E-3      -142,44       0,00529       61,22          
2615,6500     0,53861       147,03        5,945E-1      -131,89       2,165E-3      -149,24       0,0049        63,47          
2645,6000     0,54125       145,44        5,947E-1      -139,22       2,169E-3      -155,67       0,00451       58,67          
2675,5500     0,54435       143,70        5,963E-1      -146,67       2,15E-3       -162,37       0,00453       49,29          
2705,5000     0,5485        141,93        5,971E-1      -154,12       2,175E-3      -169,45       0,00499       40,15          
2735,4500     0,55273       140,26        5,964E-1      -161,62       2,152E-3      -175,88       0,00585       35,65          
2765,4000     0,55764       138,80        5,959E-1      -169,06       2,153E-3      176,69        0,00657       37,54          
2795,3500     0,56408       137,41        5,946E-1      -176,46       2,142E-3      170,26        0,00662       40,93          
2825,3000     0,5711        135,93        5,917E-1      176,19        2,133E-3      162,50        0,00615       41,82          
2855,2500     0,57791       134,17        5,897E-1      168,74        2,121E-3      156,26        0,00546       38,21          
2885,2000     0,58528       132,31        5,873E-1      161,29        2,098E-3      149,82        0,00511       26,36          
2915,1500     0,59315       130,44        5,843E-1      153,89        2,069E-3      142,25        0,00566       15,04          
2945,1000     0,60065       128,53        5,809E-1      146,48        2,06E-3       135,23        0,00644       13,22          
2975,0500     0,60838       126,58        5,768E-1      139,20        2,019E-3      128,23        0,00672       16,57          
3005,0000     0,616         124,56        5,72E-1       131,95        2,026E-3      122,33        0,00642       20,66          
3034,9500     0,62358       122,60        5,668E-1      124,81        1,986E-3      115,61        0,00565       23,48          
3064,9000     0,63056       120,61        5,622E-1      117,78        1,961E-3      109,21        0,00465       22,73          
3094,8500     0,63668       118,40        5,583E-1      110,71        1,933E-3      102,89        0,00386       15,86          
3124,8000     0,64245       116,02        5,548E-1      103,55        1,915E-3      96,66         0,00348       4,35           
3154,7500     0,64699       113,66        5,514E-1      96,47         1,886E-3      89,98         0,00363       -5,20          
3184,7000     0,65115       111,36        5,481E-1      89,67         1,883E-3      82,85         0,004         -9,36          
3214,6500     0,65467       109,10        5,436E-1      82,84         1,844E-3      76,92         0,00448       -6,08          
3244,6000     0,65793       106,94        5,397E-1      75,99         1,845E-3      70,90         0,00473       3,39           
3274,5500     0,65913       104,62        5,371E-1      69,30         1,81E-3       64,95         0,0046        16,41          
3304,5000     0,65967       102,14        5,347E-1      62,63         1,778E-3      58,41         0,00419       30,36          
3334,4500     0,66021       99,69         5,338E-1      55,75         1,774E-3      52,87         0,0034        41,93          
3364,4000     0,65835       97,33         5,336E-1      49,03         1,763E-3      45,75         0,00256       45,21          
3394,3500     0,65544       94,94         5,314E-1      42,34         1,745E-3      39,88         0,00218       33,55          
3424,3000     0,65224       92,56         5,305E-1      35,55         1,74E-3       33,69         0,00276       21,65          
3454,2500     0,64884       90,27         5,315E-1      28,89         1,715E-3      27,39         0,00374       25,22          
3484,2000     0,64292       88,00         5,30E-1       22,30         1,713E-3      21,69         0,00456       34,80          
3514,1500     0,63658       85,64         5,319E-1      15,49         1,671E-3      15,76         0,00494       45,26          
3544,1000     0,62896       83,28         5,375E-1      8,75          1,694E-3      9,03          0,00488       52,06          
3574,0500     0,61926       80,94         5,403E-1      2,11          1,707E-3      2,40          0,00456       53,48          
3604,0000     0,60911       78,75         5,432E-1      -4,81         1,688E-3      -3,71         0,00448       49,57          
3633,9500     0,59878       76,82         5,45E-1       -11,74        1,70E-3       -9,43         0,00476       43,15          
3663,9000     0,58823       75,21         5,40E-1       -18,61        1,667E-3      -16,15        0,00536       38,02          
3693,8500     0,57708       73,42         5,399E-1      -25,48        1,666E-3      -23,09        0,00625       35,63          
3723,8000     0,5633        71,25         5,511E-1      -32,26        1,666E-3      -29,27        0,0071        38,26          
3753,7500     0,54818       69,30         5,612E-1      -39,11        1,663E-3      -35,55        0,00757       43,38          
3783,7000     0,53279       67,71         5,666E-1      -46,14        1,658E-3      -42,56        0,00739       47,88          
3813,6500     0,5173        66,35         5,707E-1      -53,30        1,671E-3      -49,27        0,00676       48,40          
3843,6000     0,5025        65,20         5,744E-1      -60,46        1,673E-3      -55,94        0,00608       43,73          
3873,5500     0,48822       64,31         5,772E-1      -67,58        1,657E-3      -63,11        0,00593       35,94          
3903,5000     0,47455       63,67         5,787E-1      -74,76        1,648E-3      -69,91        0,00643       26,93          
3933,4500     0,45991       63,11         5,845E-1      -82,06        1,641E-3      -76,80        0,00738       22,80          
3963,4000     0,44348       62,82         5,94E-1       -89,45        1,638E-3      -84,02        0,00821       24,01          
3993,3500     0,42656       62,95         6,048E-1      -97,06        1,647E-3      -91,14        0,00854       27,25          
4023,3000     0,41281       63,54         6,127E-1      -104,65       1,638E-3      -98,25        0,00829       28,50          
4053,2500     0,40483       64,26         6,156E-1      -112,06       1,611E-3      -105,46       0,00787       26,03          
4083,2000     0,40096       64,91         6,137E-1      -119,24       1,588E-3      -112,83       0,00778       21,05          
4113,1500     0,39833       65,76         6,139E-1      -126,51       1,576E-3      -119,81       0,00806       16,81          
4143,1000     0,39214       67,53         6,274E-1      -134,59       1,553E-3      -126,96       0,00835       12,62          
4173,0500     0,38962       69,54         6,405E-1      -142,70       1,546E-3      -134,36       0,00889       7,86           
4203,0000     0,39234       71,21         6,485E-1      -150,67       1,519E-3      -141,45       0,0098        6,21           
4232,9500     0,39893       72,37         6,533E-1      -158,47       1,494E-3      -148,91       0,01041       8,85           
4262,9000     0,40769       73,00         6,547E-1      -166,01       1,494E-3      -155,87       0,01006       11,62          
4292,8500     0,41725       73,47         6,566E-1      -173,60       1,462E-3      -162,65       0,009         9,87           
4322,8000     0,42846       73,67         6,595E-1      178,82        1,431E-3      -170,03       0,00824       -0,33          
4352,7500     0,44122       73,62         6,633E-1      171,19        1,404E-3      -177,86       0,00875       -13,53         
4382,7000     0,45502       73,50         6,683E-1      163,33        1,392E-3      175,09        0,01015       -19,70         
4412,6500     0,47033       73,42         6,759E-1      155,25        1,372E-3      167,93        0,01139       -20,24         
4442,6000     0,48557       73,10         6,824E-1      147,24        1,365E-3      160,52        0,01198       -18,34         
4472,5500     0,50012       72,48         6,879E-1      139,37        1,333E-3      153,42        0,01168       -16,22         
4502,5000     0,51373       71,60         6,924E-1      131,63        1,326E-3      144,86        0,01034       -16,29         
4532,4500     0,52515       70,55         6,961E-1      123,99        1,26E-3       138,14        0,00853       -24,86         
4562,4000     0,53483       69,34         7,001E-1      116,17        1,242E-3      130,67        0,00807       -42,21         
4592,3500     0,54765       68,12         7,078E-1      107,86        1,258E-3      122,78        0,00932       -54,44         
