!    13.04.2021   18:40:08 
! Ref Plane: 0,000 mm
# MHZ S MA R  50
!
10,0000       0,99001       -3,11         2,187E-3      -4,42         3,908E-6      119,76        0,00612       -12,50         
39,9500       0,98587       -11,03        2,748E-2      -33,37        3,488E-5      166,28        0,00637       -41,47         
69,9000       0,98348       -19,03        7,637E-2      -52,68        1,021E-4      153,92        0,00705       -69,36         
99,8500       0,97923       -27,02        1,458E-1      -70,25        1,906E-4      138,03        0,00777       -95,78         
129,8000      0,96856       -35,34        2,297E-1      -91,46        3,184E-4      124,52        0,00853       -121,39        
159,7500      0,95707       -42,61        2,841E-1      -110,27       4,681E-4      105,39        0,00941       -146,10        
189,7000      0,9422        -49,36        3,24E-1       -130,70       6,333E-4      88,12         0,01013       -167,06        
219,6500      0,92881       -57,06        4,23E-1       -148,90       7,713E-4      73,15         0,01053       175,15         
249,6000      0,91595       -64,59        5,211E-1      -166,02       9,354E-4      59,49         0,01037       158,43         
279,5500      0,90216       -70,87        5,718E-1      175,90        1,061E-3      45,97         0,00929       139,16         
309,5000      0,88951       -76,44        5,89E-1       158,90        1,18E-3       32,31         0,00835       130,48         
339,4500      0,8783        -82,81        6,433E-1      143,18        1,277E-3      20,15         0,00716       115,19         
369,4000      0,86517       -88,86        6,904E-1      127,88        1,356E-3      7,59          0,00608       101,65         
399,3500      0,85479       -94,95        7,245E-1      114,07        1,428E-3      -3,17         0,00504       93,60          
429,3000      0,8488        -99,94        7,092E-1      100,92        1,48E-3       -13,56        0,00435       94,31          
459,2500      0,84779       -104,21       6,661E-1      88,86         1,507E-3      -22,85        0,00316       89,27          
489,2000      0,82955       -111,13       7,681E-1      76,48         1,538E-3      -32,19        0,00223       93,03          
519,1500      0,8181        -117,07       8,233E-1      65,36         1,577E-3      -40,55        0,00175       106,06         
549,1000      0,81113       -121,83       7,989E-1      54,43         1,612E-3      -49,29        0,0019        127,28         
579,0500      0,80907       -126,20       7,618E-1      43,78         1,652E-3      -57,06        0,00246       135,72         
609,0000      0,81563       -130,15       6,962E-1      34,77         1,659E-3      -65,44        0,00317       144,51         
638,9500      0,80566       -135,55       7,276E-1      24,75         1,676E-3      -72,70        0,00421       147,01         
668,9000      0,79428       -141,58       7,784E-1      15,71         1,687E-3      -79,52        0,00519       149,63         
698,8500      0,79296       -145,97       7,604E-1      6,97          1,693E-3      -86,74        0,00579       152,34         
728,8000      0,79728       -149,56       6,92E-1       -1,39         1,73E-3       -93,38        0,00618       153,31         
758,7500      0,78273       -155,42       7,553E-1      -9,89         1,775E-3      -99,93        0,00657       148,81         
788,7000      0,76549       -161,60       8,225E-1      -18,61        1,806E-3      -106,86       0,00696       141,66         
818,6500      0,75728       -166,32       8,06E-1       -27,32        1,838E-3      -113,65       0,00753       135,25         
848,6000      0,7546        -169,94       7,619E-1      -35,80        1,86E-3       -120,71       0,00814       129,79         
878,5500      0,75252       -172,92       6,899E-1      -44,17        1,873E-3      -127,63       0,00875       125,53         
908,5000      0,74243       -177,31       6,991E-1      -52,00        1,896E-3      -133,62       0,00925       122,45         
938,4500      0,72292       177,12        7,452E-1      -60,47        1,933E-3      -139,88       0,00944       119,51         
968,4000      0,70536       172,48        7,547E-1      -68,87        1,978E-3      -146,14       0,00942       115,29         
998,3500      0,7013        168,25        7,387E-1      -76,35        2,033E-3      -152,64       0,00963       109,12         
1028,3000     0,68837       163,99        7,396E-1      -84,37        2,077E-3      -158,71       0,01013       103,57         
1058,2500     0,6671        158,78        7,765E-1      -92,76        2,12E-3       -165,55       0,01057       100,40         
1088,2000     0,65085       153,63        7,936E-1      -100,76       2,143E-3      -172,73       0,0107        98,23          
1118,1500     0,64442       150,05        7,634E-1      -108,03       2,171E-3      -179,05       0,0107        95,87          
1148,1000     0,64394       146,62        7,155E-1      -114,81       2,224E-3      174,31        0,01078       93,30          
1178,0500     0,63111       141,74        7,184E-1      -122,11       2,287E-3      167,98        0,01075       92,23          
1208,0000     0,59495       135,43        7,684E-1      -131,52       2,362E-3      161,59        0,01014       90,99          
1237,9500     0,56864       129,87        7,892E-1      -140,15       2,393E-3      154,51        0,00932       86,60          
1267,9000     0,55591       125,13        7,68E-1       -147,69       2,418E-3      147,40        0,00923       78,80          
1297,8500     0,55279       121,48        7,201E-1      -154,64       2,468E-3      140,33        0,00987       74,81          
1327,8000     0,52942       116,75        7,176E-1      -162,87       2,511E-3      133,67        0,01042       75,48          
1357,7500     0,4852        110,01        7,479E-1      -171,70       2,572E-3      126,67        0,01038       77,72          
1387,7000     0,44458       104,23        7,597E-1      179,51        2,649E-3      119,62        0,00973       78,04          
1417,6500     0,42793       99,62         7,36E-1       172,15        2,693E-3      112,26        0,00914       75,72          
1447,6000     0,40085       93,95         7,312E-1      164,62        2,732E-3      104,75        0,00898       72,80          
1477,5500     0,37577       88,41         7,217E-1      157,04        2,74E-3       96,91         0,00904       71,99          
1507,5000     0,34763       81,88         7,234E-1      150,07        2,76E-3       89,57         0,00916       71,03          
1537,4500     0,31828       76,06         7,228E-1      142,43        2,772E-3      82,64         0,0093        69,46          
1567,4000     0,27315       68,18         7,232E-1      135,07        2,817E-3      75,69         0,00968       68,16          
1597,3500     0,2257        60,38         7,378E-1      125,89        2,851E-3      68,68         0,00993       69,64          
1627,3000     0,15709       50,85         7,675E-1      115,52        2,882E-3      60,97         0,00965       71,54          
1657,2500     0,11959       40,00         7,686E-1      106,70        2,886E-3      53,37         0,00918       70,55          
1687,2000     0,0895        25,08         7,605E-1      98,36         2,894E-3      45,74         0,00902       66,84          
1717,1500     0,0587        1,06          7,613E-1      89,20         2,865E-3      38,43         0,00924       63,05          
1747,1000     0,04377       -49,74        7,659E-1      80,10         2,859E-3      31,07         0,00963       60,68          
1777,0500     0,05948       -95,14        7,666E-1      71,26         2,861E-3      24,49         0,00989       59,52          
1807,0000     0,0859        -115,74       7,641E-1      62,59         2,856E-3      17,83         0,01004       58,73          
1836,9500     0,1164        -128,93       7,68E-1       53,76         2,849E-3      10,92         0,01001       58,35          
1866,9000     0,14291       -137,95       7,673E-1      45,45         2,841E-3      3,89          0,00972       57,75          
1896,8500     0,16732       -145,40       7,646E-1      37,21         2,843E-3      -3,12         0,00925       56,31          
1926,8000     0,18555       -151,13       7,565E-1      29,24         2,846E-3      -9,95         0,00879       53,13          
1956,7500     0,20461       -157,73       7,581E-1      21,13         2,815E-3      -16,92        0,00858       47,71          
1986,7000     0,22213       -163,85       7,58E-1       13,17         2,814E-3      -23,66        0,00877       43,12          
2016,6500     0,23344       -168,73       7,54E-1       5,39          2,818E-3      -30,03        0,00911       41,89          
2046,6000     0,24268       -172,08       7,483E-1      -2,11         2,793E-3      -36,64        0,00917       43,11          
2076,5500     0,25033       -175,80       7,434E-1      -9,76         2,795E-3      -43,15        0,00878       44,20          
2106,5000     0,25679       -179,24       7,41E-1       -17,38        2,80E-3       -50,17        0,0082        43,84          
2136,4500     0,26344       178,09        7,373E-1      -24,92        2,796E-3      -56,97        0,00766       40,98          
2166,4000     0,2679        175,73        7,326E-1      -32,47        2,805E-3      -63,61        0,00735       36,83          
2196,3500     0,268         173,90        7,272E-1      -39,91        2,80E-3       -70,32        0,00737       34,21          
2226,3000     0,26848       172,93        7,214E-1      -47,32        2,81E-3       -76,49        0,00755       33,72          
2256,2500     0,27383       171,46        7,175E-1      -54,90        2,796E-3      -83,43        0,00783       35,36          
2286,2000     0,27794       169,93        7,134E-1      -62,60        2,802E-3      -90,06        0,00786       38,70          
2316,1500     0,28223       169,50        7,077E-1      -70,16        2,81E-3       -96,81        0,00765       42,16          
2346,1000     0,28401       169,52        7,016E-1      -77,75        2,828E-3      -103,21       0,00717       44,16          
2376,0500     0,28496       169,74        6,948E-1      -85,42        2,844E-3      -110,78       0,00668       44,55          
2406,0000     0,29351       169,79        6,894E-1      -93,16        2,834E-3      -117,48       0,00648       41,77          
2435,9500     0,30366       169,56        6,844E-1      -100,92       2,822E-3      -124,76       0,00655       37,76          
2465,9000     0,31284       169,59        6,773E-1      -108,72       2,83E-3       -131,25       0,0069        34,48          
2495,8500     0,32581       169,76        6,704E-1      -116,54       2,808E-3      -138,59       0,00758       33,12          
2525,8000     0,34185       169,33        6,654E-1      -124,29       2,808E-3      -145,21       0,00821       35,21          
2555,7500     0,35791       168,23        6,595E-1      -132,15       2,814E-3      -152,81       0,0083        38,87          
2585,7000     0,37524       167,18        6,53E-1       -140,01       2,807E-3      -159,72       0,0079        40,20          
2615,6500     0,39385       166,24        6,441E-1      -147,69       2,766E-3      -167,04       0,00729       38,59          
2645,6000     0,41347       165,18        6,334E-1      -155,31       2,749E-3      -173,91       0,00685       32,73          
2675,5500     0,43253       163,20        6,26E-1       -163,13       2,683E-3      179,21        0,00691       25,56          
2705,5000     0,45044       160,66        6,194E-1      -171,12       2,701E-3      172,19        0,0073        19,34          
2735,4500     0,46833       158,24        6,096E-1      -178,98       2,654E-3      164,91        0,0079        16,87          
2765,4000     0,48672       156,11        5,999E-1      173,42        2,634E-3      158,00        0,0082        18,23          
2795,3500     0,50586       153,99        5,896E-1      165,97        2,591E-3      151,18        0,00784       20,22          
2825,3000     0,52418       151,69        5,777E-1      158,61        2,56E-3       144,43        0,00712       19,77          
2855,2500     0,53948       148,97        5,678E-1      151,11        2,528E-3      137,93        0,00633       15,63          
2885,2000     0,55344       146,11        5,576E-1      143,64        2,483E-3      131,15        0,00599       6,39           
2915,1500     0,56705       143,27        5,473E-1      136,28        2,437E-3      124,45        0,00644       -0,77          
2945,1000     0,5794        140,46        5,379E-1      128,99        2,409E-3      117,64        0,00687       -0,56          
2975,0500     0,59078       137,68        5,283E-1      121,88        2,378E-3      111,13        0,00677       3,56           
3005,0000     0,60096       134,90        5,187E-1      114,77        2,349E-3      105,03        0,00622       7,81           
3034,9500     0,61008       132,23        5,093E-1      107,73        2,32E-3       98,80         0,00533       10,93          
3064,9000     0,6176        129,66        5,012E-1      100,78        2,285E-3      92,64         0,00432       10,71          
3094,8500     0,62351       126,95        4,931E-1      93,87         2,241E-3      86,50         0,00355       4,68           
3124,8000     0,62887       124,06        4,876E-1      86,96         2,23E-3       80,44         0,00322       -5,40          
3154,7500     0,63279       121,24        4,833E-1      80,13         2,206E-3      73,77         0,00333       -13,31         
3184,7000     0,63543       118,59        4,779E-1      73,43         2,214E-3      67,61         0,00368       -15,25         
3214,6500     0,63675       116,13        4,706E-1      66,57         2,174E-3      61,88         0,00415       -9,95          
3244,6000     0,63732       113,89        4,628E-1      59,58         2,173E-3      55,67         0,00439       0,71           
3274,5500     0,63655       111,51        4,576E-1      52,92         2,141E-3      49,37         0,00433       14,60          
3304,5000     0,63539       108,86        4,567E-1      46,36         2,118E-3      43,37         0,00405       28,39          
3334,4500     0,63397       106,30        4,565E-1      39,54         2,113E-3      37,98         0,00338       39,55          
3364,4000     0,63041       103,96        4,553E-1      32,79         2,115E-3      30,60         0,00265       42,24          
3394,3500     0,6259        101,75        4,519E-1      25,94         2,108E-3      24,43         0,00229       31,49          
3424,3000     0,62114       99,62         4,486E-1      19,02         2,12E-3       18,39         0,00285       19,58          
3454,2500     0,61674       97,67         4,459E-1      12,19         2,088E-3      12,48         0,00373       21,90          
3484,2000     0,61098       95,84         4,421E-1      5,43          2,083E-3      5,87          0,00445       30,39          
3514,1500     0,604         93,92         4,419E-1      -1,51         2,056E-3      -0,27         0,00469       39,86          
3544,1000     0,59515       91,83         4,488E-1      -8,55         2,079E-3      -6,83         0,00453       45,95          
3574,0500     0,5851        89,97         4,53E-1       -15,55        2,088E-3      -13,64        0,00417       46,77          
3604,0000     0,57636       88,42         4,535E-1      -22,72        2,072E-3      -19,91        0,00402       43,11          
3633,9500     0,56975       87,12         4,52E-1       -29,83        2,088E-3      -26,29        0,00417       37,56          
3663,9000     0,56598       86,11         4,46E-1       -36,66        2,064E-3      -33,59        0,00459       32,82          
3693,8500     0,56047       85,03         4,428E-1      -43,67        2,059E-3      -40,40        0,00531       31,13          
3723,8000     0,55129       83,87         4,493E-1      -51,07        2,046E-3      -47,01        0,00596       35,33          
3753,7500     0,54288       82,95         4,553E-1      -58,46        2,046E-3      -53,89        0,00627       42,36          
3783,7000     0,53698       82,25         4,566E-1      -65,81        2,033E-3      -60,98        0,00602       49,05          
3813,6500     0,53319       81,58         4,57E-1       -73,24        2,04E-3       -67,44        0,00538       51,78          
3843,6000     0,53146       80,98         4,571E-1      -80,55        2,023E-3      -73,83        0,00471       49,34          
3873,5500     0,53122       80,43         4,566E-1      -87,80        1,999E-3      -81,42        0,00446       42,80          
3903,5000     0,53244       79,88         4,555E-1      -95,09        1,984E-3      -88,15        0,00478       33,03          
3933,4500     0,53486       79,26         4,556E-1      -102,41       1,964E-3      -95,25        0,00564       28,27          
3963,4000     0,53777       78,62         4,558E-1      -109,73       1,944E-3      -101,45       0,00656       30,42          
3993,3500     0,54136       77,96         4,56E-1       -117,20       1,941E-3      -108,10       0,00713       35,48          
4023,3000     0,54633       77,13         4,556E-1      -124,56       1,929E-3      -114,91       0,0072        38,75          
4053,2500     0,55266       76,12         4,549E-1      -131,67       1,902E-3      -121,61       0,00699       38,67          
4083,2000     0,55996       74,92         4,541E-1      -138,59       1,871E-3      -128,22       0,00694       35,64          
4113,1500     0,56826       73,59         4,54E-1       -145,49       1,857E-3      -134,31       0,00722       32,89          
4143,1000     0,57559       72,23         4,549E-1      -152,70       1,845E-3      -140,85       0,00749       29,27          
4173,0500     0,58206       70,71         4,557E-1      -159,91       1,845E-3      -147,98       0,00793       24,40          
4203,0000     0,58826       69,01         4,566E-1      -167,01       1,837E-3      -154,02       0,00883       21,73          
4232,9500     0,59364       67,19         4,587E-1      -173,96       1,828E-3      -160,22       0,00967       23,76          
4262,9000     0,59788       65,25         4,61E-1       179,21        1,83E-3       -166,26       0,00974       27,14          
4292,8500     0,60086       63,16         4,638E-1      172,36        1,837E-3      -172,74       0,009         27,69          
4322,8000     0,60332       60,83         4,664E-1      165,43        1,828E-3      -179,53       0,00817       20,92          
4352,7500     0,60444       58,33         4,691E-1      158,39        1,822E-3      173,84        0,00824       8,76           
4382,7000     0,60339       55,87         4,745E-1      151,28        1,838E-3      167,18        0,00938       0,97           
4412,6500     0,60008       53,63         4,846E-1      144,13        1,861E-3      160,87        0,0107        -0,83          
4442,6000     0,59388       51,23         4,95E-1       136,88        1,909E-3      154,24        0,01169       0,58           
4472,5500     0,58357       48,59         5,034E-1      129,38        1,922E-3      147,83        0,01194       3,32           
4502,5000     0,56651       45,22         5,019E-1      121,23        1,965E-3      140,14        0,01123       5,82           
4532,4500     0,54214       41,11         4,899E-1      112,33        1,965E-3      133,25        0,0096        3,69           
4562,4000     0,51489       37,94         4,926E-1      103,65        2,017E-3      125,42        0,00844       -6,87          
4592,3500     0,48914       36,05         5,144E-1      95,11         2,102E-3      117,22        0,00883       -20,10         
