!    13.04.2021   18:39:22 
! Ref Plane: 0,000 mm
# MHZ S MA R  50
!
10,0000       0,99064       -2,94         2,034E-3      -6,96         9,341E-6      119,36        0,00612       -12,35         
39,9500       0,98473       -10,46        1,657E-2      -40,32        3,563E-5      167,83        0,00636       -41,45         
69,9000       0,98225       -18,03        4,30E-2       -57,58        1,052E-4      154,13        0,00704       -69,46         
99,8500       0,97877       -25,58        8,136E-2      -73,31        2,013E-4      139,15        0,00778       -95,83         
129,8000      0,97035       -33,36        1,30E-1       -93,96        3,334E-4      126,11        0,00852       -121,45        
159,7500      0,96196       -40,32        1,628E-1      -111,80       4,89E-4       108,30        0,00939       -146,33        
189,7000      0,95143       -46,94        1,896E-1      -131,61       6,633E-4      90,84         0,01009       -167,62        
219,6500      0,9424        -54,19        2,473E-1      -149,72       8,265E-4      76,07         0,0105        174,39         
249,6000      0,93391       -61,39        3,064E-1      -166,79       1,012E-3      62,32         0,01033       157,62         
279,5500      0,92501       -67,65        3,376E-1      175,45        1,155E-3      48,78         0,0092        138,40         
309,5000      0,91617       -73,28        3,452E-1      158,68        1,286E-3      35,49         0,00817       130,35         
339,4500      0,90852       -79,59        3,771E-1      143,13        1,401E-3      23,02         0,00693       114,96         
369,4000      0,89942       -85,68        4,071E-1      128,04        1,497E-3      10,32         0,00584       101,46         
399,3500      0,89178       -91,84        4,304E-1      114,57        1,578E-3      -0,79         0,0048        94,18          
429,3000      0,88721       -97,01        4,178E-1      101,86        1,643E-3      -11,25        0,00418       96,48          
459,2500      0,88585       -101,47       3,908E-1      89,93         1,678E-3      -20,49        0,00305       93,23          
489,2000      0,87331       -108,14       4,53E-1       77,81         1,714E-3      -29,83        0,0022        99,51          
519,1500      0,86403       -114,04       4,92E-1       66,49         1,762E-3      -38,82        0,0018        114,27         
549,1000      0,85663       -119,00       4,794E-1      55,95         1,807E-3      -47,52        0,00206       131,98         
579,0500      0,85371       -123,53       4,574E-1      45,45         1,851E-3      -55,21        0,00267       137,04         
609,0000      0,85853       -127,62       4,156E-1      36,72         1,874E-3      -63,69        0,00337       143,35         
638,9500      0,8498        -132,94       4,36E-1       26,49         1,884E-3      -71,09        0,00444       144,93         
668,9000      0,84225       -138,94       4,745E-1      17,84         1,89E-3       -78,29        0,00541       147,22         
698,8500      0,84108       -143,32       4,604E-1      9,36          1,913E-3      -85,29        0,00597       150,21         
728,8000      0,84519       -146,91       4,137E-1      1,66          1,958E-3      -92,00        0,00629       152,02         
758,7500      0,83509       -152,64       4,535E-1      -6,52         2,00E-3       -98,66        0,0066        148,07         
788,7000      0,82417       -158,74       5,02E-1       -14,60        2,041E-3      -105,99       0,00695       141,11         
818,6500      0,81593       -163,52       4,941E-1      -23,16        2,098E-3      -112,93       0,00744       134,23         
848,6000      0,81156       -167,19       4,656E-1      -31,60        2,117E-3      -120,05       0,00803       128,15         
878,5500      0,80569       -170,12       4,132E-1      -40,32        2,126E-3      -127,04       0,00866       123,52         
908,5000      0,79725       -174,47       4,224E-1      -47,92        2,156E-3      -133,37       0,00921       120,83         
938,4500      0,78409       179,98        4,575E-1      -55,93        2,17E-3       -139,53       0,0094        118,50         
968,4000      0,7681        175,36        4,651E-1      -64,26        2,226E-3      -145,75       0,00938       115,03         
998,3500      0,76635       171,12        4,574E-1      -71,29        2,295E-3      -152,49       0,00954       109,30         
1028,3000     0,75395       166,99        4,562E-1      -79,12        2,34E-3       -158,95       0,00996       103,61         
1058,2500     0,73672       161,73        4,904E-1      -87,38        2,398E-3      -165,87       0,01037       100,02         
1088,2000     0,72323       156,58        5,072E-1      -95,29        2,434E-3      -173,02       0,01052       97,66          
1118,1500     0,71962       153,06        4,871E-1      -102,33       2,455E-3      -179,42       0,01055       95,37          
1148,1000     0,72235       149,78        4,487E-1      -108,84       2,522E-3      174,24        0,01069       93,17          
1178,0500     0,71308       145,26        4,472E-1      -115,92       2,581E-3      167,61        0,0107        92,58          
1208,0000     0,68473       139,24        4,861E-1      -125,34       2,641E-3      160,76        0,01006       91,78          
1237,9500     0,66596       133,83        5,068E-1      -133,90       2,688E-3      153,73        0,00918       87,54          
1267,9000     0,65809       129,17        4,965E-1      -141,29       2,721E-3      146,48        0,00903       79,40          
1297,8500     0,66175       125,83        4,53E-1       -147,71       2,77E-3       139,78        0,00969       75,27          
1327,8000     0,64549       121,08        4,516E-1      -155,73       2,818E-3      133,07        0,01035       75,87          
1357,7500     0,6158        114,22        4,827E-1      -164,25       2,879E-3      126,24        0,01042       78,14          
1387,7000     0,58648       107,97        4,932E-1      -172,15       2,975E-3      119,02        0,00984       78,79          
1417,6500     0,57231       103,38        4,746E-1      -179,02       3,039E-3      111,43        0,00921       77,02          
1447,6000     0,55447       97,46         4,717E-1      174,67        3,09E-3       103,64        0,00897       74,38          
1477,5500     0,53295       92,09         4,616E-1      167,46        3,091E-3      95,58         0,00899       73,26          
1507,5000     0,51645       85,42         4,658E-1      162,30        3,082E-3      88,29         0,00911       72,03          
1537,4500     0,48794       80,04         4,655E-1      154,99        3,071E-3      81,62         0,00934       69,87          
1567,4000     0,47588       73,00         4,575E-1      150,80        3,117E-3      75,16         0,00982       67,98          
1597,3500     0,42502       65,03         4,755E-1      141,03        3,185E-3      68,28         0,01013       69,34          
1627,3000     0,35234       52,85         5,179E-1      129,74        3,242E-3      60,19         0,00985       71,52          
1657,2500     0,31362       43,81         5,234E-1      120,22        3,25E-3       52,05         0,00934       71,08          
1687,2000     0,30198       36,16         5,075E-1      113,00        3,256E-3      44,25         0,00912       67,89          
1717,1500     0,26659       28,08         5,016E-1      104,04        3,208E-3      36,66         0,00927       63,99          
1747,1000     0,23761       16,20         5,056E-1      94,82         3,168E-3      29,36         0,00962       60,91          
1777,0500     0,19561       -0,82         5,206E-1      84,85         3,163E-3      22,92         0,00993       58,98          
1807,0000     0,16419       -17,87        5,221E-1      74,95         3,157E-3      16,52         0,01013       57,79          
1836,9500     0,14524       -37,84        5,237E-1      65,47         3,155E-3      9,69          0,01015       57,44          
1866,9000     0,13894       -58,79        5,282E-1      56,33         3,165E-3      2,45          0,00988       57,22          
1896,8500     0,14111       -81,80        5,345E-1      46,95         3,17E-3       -4,61         0,00936       56,36          
1926,8000     0,14939       -96,91        5,28E-1       37,91         3,156E-3      -11,62        0,00884       53,47          
1956,7500     0,1679        -108,98       5,293E-1      28,91         3,124E-3      -18,74        0,00854       47,80          
1986,7000     0,18809       -122,70       5,367E-1      19,99         3,105E-3      -25,54        0,00871       42,58          
2016,6500     0,20596       -133,43       5,387E-1      10,76         3,111E-3      -31,74        0,00908       40,91          
2046,6000     0,22289       -140,24       5,416E-1      2,65          3,099E-3      -38,04        0,00917       41,94          
2076,5500     0,23709       -146,52       5,383E-1      -5,59         3,084E-3      -44,78        0,00883       43,30          
2106,5000     0,24763       -154,40       5,414E-1      -14,02        3,103E-3      -51,70        0,00825       43,40          
2136,4500     0,25622       -160,28       5,511E-1      -21,72        3,092E-3      -58,77        0,00764       41,15          
2166,4000     0,2676        -165,41       5,643E-1      -29,29        3,087E-3      -65,30        0,00724       37,09          
2196,3500     0,27422       -168,39       5,567E-1      -37,07        3,081E-3      -71,84        0,00718       34,00          
2226,3000     0,27634       -170,04       5,505E-1      -44,59        3,095E-3      -78,29        0,00735       32,81          
2256,2500     0,28367       -173,07       5,651E-1      -51,92        3,073E-3      -84,95        0,00766       34,22          
2286,2000     0,2847        -177,12       5,746E-1      -60,05        3,095E-3      -91,95        0,00778       37,86          
2316,1500     0,28718       -178,40       5,786E-1      -67,80        3,091E-3      -98,49        0,00762       41,94          
2346,1000     0,29223       -178,99       5,79E-1       -75,56        3,116E-3      -105,18       0,00718       44,87          
2376,0500     0,29813       -179,32       5,712E-1      -83,41        3,132E-3      -112,62       0,00663       46,16          
2406,0000     0,30553       -179,52       5,69E-1       -91,44        3,114E-3      -119,29       0,00632       43,70          
2435,9500     0,31807       -179,95       5,734E-1      -99,05        3,10E-3       -126,34       0,0063        39,21          
2465,9000     0,33098       179,52        5,67E-1       -106,84       3,108E-3      -132,94       0,00666       35,12          
2495,8500     0,34737       179,01        5,562E-1      -114,74       3,097E-3      -140,27       0,00744       33,26          
2525,8000     0,36775       178,07        5,575E-1      -122,21       3,088E-3      -147,14       0,00819       35,49          
2555,7500     0,38812       176,30        5,524E-1      -129,81       3,102E-3      -154,61       0,00838       39,50          
2585,7000     0,41047       174,21        5,465E-1      -137,37       3,095E-3      -161,60       0,00803       41,69          
2615,6500     0,43296       172,29        5,386E-1      -144,93       3,048E-3      -169,07       0,00738       40,76          
2645,6000     0,45818       170,30        5,263E-1      -152,09       3,019E-3      -175,67       0,00686       35,23          
2675,5500     0,47822       167,57        5,205E-1      -159,73       2,966E-3      177,45        0,00683       27,46          
2705,5000     0,49273       164,22        5,245E-1      -167,91       2,978E-3      170,44        0,00725       20,03          
2735,4500     0,5071        161,02        5,242E-1      -176,05       2,936E-3      163,20        0,00796       16,91          
2765,4000     0,52474       158,39        5,153E-1      176,33        2,914E-3      155,94        0,00838       18,25          
2795,3500     0,54502       155,80        5,025E-1      169,05        2,857E-3      149,31        0,0081        20,65          
2825,3000     0,56455       153,21        4,893E-1      161,78        2,807E-3      142,48        0,00738       20,85          
2855,2500     0,57789       150,21        4,838E-1      154,18        2,763E-3      135,85        0,00649       17,29          
2885,2000     0,58678       147,15        4,803E-1      146,24        2,723E-3      129,13        0,00605       7,80           
2915,1500     0,5975        144,16        4,735E-1      138,63        2,671E-3      122,38        0,00645       -0,70          
2945,1000     0,60758       141,25        4,661E-1      131,14        2,644E-3      115,55        0,00691       -1,56          
2975,0500     0,61678       138,37        4,579E-1      123,88        2,585E-3      108,67        0,00692       1,91           
3005,0000     0,62518       135,50        4,48E-1       116,63        2,552E-3      103,01        0,00646       6,22           
3034,9500     0,63419       132,73        4,373E-1      109,57        2,517E-3      96,48         0,0056        9,87           
3064,9000     0,64182       130,07        4,268E-1      102,69        2,473E-3      90,56         0,00451       10,26          
3094,8500     0,64586       127,39        4,189E-1      95,61         2,421E-3      84,51         0,00364       4,75           
3124,8000     0,64902       124,59        4,17E-1       88,38         2,417E-3      78,28         0,00319       -6,24          
3154,7500     0,65205       121,86        4,155E-1      81,44         2,389E-3      71,76         0,00329       -15,97         
3184,7000     0,65373       119,26        4,101E-1      74,72         2,389E-3      65,73         0,00368       -18,99         
3214,6500     0,65424       116,85        3,985E-1      67,74         2,329E-3      59,92         0,00419       -13,54         
3244,6000     0,6552        114,71        3,858E-1      60,69         2,321E-3      53,73         0,00445       -2,44          
3274,5500     0,65445       112,47        3,788E-1      54,04         2,295E-3      47,40         0,00437       12,16          
3304,5000     0,65357       109,83        3,789E-1      47,51         2,259E-3      41,42         0,00403       27,26          
3334,4500     0,65374       107,23        3,803E-1      40,73         2,259E-3      35,88         0,0033        40,02          
3364,4000     0,65118       105,00        3,787E-1      34,16         2,266E-3      29,11         0,00249       44,60          
3394,3500     0,64779       102,89        3,725E-1      27,47         2,256E-3      22,91         0,00204       33,22          
3424,3000     0,64489       100,81        3,66E-1       20,68         2,248E-3      16,73         0,00258       18,20          
3454,2500     0,64345       98,91         3,609E-1      14,20         2,227E-3      10,92         0,00351       20,24          
3484,2000     0,64002       97,07         3,548E-1      7,80          2,21E-3       4,52          0,00431       29,64          
3514,1500     0,63556       94,98         3,538E-1      1,10          2,193E-3      -1,50         0,00462       40,43          
3544,1000     0,62753       92,57         3,65E-1       -5,90         2,215E-3      -8,16         0,00453       47,81          
3574,0500     0,61689       90,40         3,747E-1      -12,75        2,231E-3      -14,59        0,00419       49,97          
3604,0000     0,60916       88,61         3,749E-1      -19,72        2,221E-3      -20,88        0,00397       47,27          
3633,9500     0,60577       87,11         3,70E-1       -26,46        2,212E-3      -27,15        0,00405       41,06          
3663,9000     0,60692       85,88         3,589E-1      -32,44        2,202E-3      -34,39        0,00444       34,82          
3693,8500     0,60279       84,37         3,547E-1      -38,97        2,188E-3      -40,76        0,00522       32,26          
3723,8000     0,59134       82,69         3,652E-1      -46,48        2,183E-3      -47,18        0,00602       36,03          
3753,7500     0,57943       81,31         3,776E-1      -54,03        2,193E-3      -53,99        0,00645       42,98          
3783,7000     0,57114       80,21         3,818E-1      -61,28        2,195E-3      -61,00        0,00628       49,89          
3813,6500     0,56563       79,12         3,834E-1      -68,55        2,202E-3      -67,60        0,00565       53,40          
3843,6000     0,5619        78,10         3,85E-1       -75,64        2,186E-3      -74,04        0,00489       51,65          
3873,5500     0,55893       77,18         3,857E-1      -82,60        2,157E-3      -81,36        0,00453       44,92          
3903,5000     0,55659       76,26         3,858E-1      -89,70        2,145E-3      -88,16        0,00481       33,84          
3933,4500     0,55474       75,35         3,887E-1      -97,04        2,129E-3      -94,77        0,00572       27,61          
3963,4000     0,55251       74,64         3,939E-1      -104,52       2,131E-3      -101,29       0,00672       29,25          
3993,3500     0,55062       74,12         4,00E-1       -112,41       2,127E-3      -107,93       0,00737       34,28          
4023,3000     0,55167       73,40         4,038E-1      -120,03       2,12E-3       -114,81       0,00746       38,02          
4053,2500     0,55506       72,39         4,049E-1      -127,12       2,094E-3      -121,65       0,00722       38,53          
4083,2000     0,55961       71,06         4,037E-1      -133,84       2,067E-3      -128,04       0,00708       35,84          
4113,1500     0,56502       69,67         4,034E-1      -140,80       2,057E-3      -134,39       0,00724       32,75          
4143,1000     0,56953       68,69         4,093E-1      -148,57       2,057E-3      -141,08       0,00744       28,48          
4173,0500     0,57369       67,54         4,149E-1      -156,18       2,061E-3      -148,08       0,0079        22,99          
4203,0000     0,57832       66,02         4,185E-1      -163,58       2,055E-3      -154,44       0,00888       20,22          
4232,9500     0,5829        64,17         4,209E-1      -170,79       2,04E-3       -160,60       0,00977       22,59          
4262,9000     0,58661       61,91         4,202E-1      -177,95       2,064E-3      -166,96       0,00984       26,29          
4292,8500     0,58897       59,34         4,18E-1       174,69        2,057E-3      -173,58       0,00906       27,24          
4322,8000     0,59025       56,51         4,157E-1      167,19        2,063E-3      179,74        0,00813       20,50          
4352,7500     0,5893        53,63         4,158E-1      159,65        2,073E-3      172,87        0,00813       7,80           
4382,7000     0,58503       50,96         4,208E-1      152,12        2,103E-3      165,85        0,00929       -0,46          
4412,6500     0,57813       48,69         4,329E-1      144,61        2,122E-3      159,19        0,01068       -2,31          
4442,6000     0,56792       46,10         4,437E-1      136,93        2,178E-3      152,26        0,01173       -0,59          
4472,5500     0,55185       42,74         4,468E-1      128,73        2,19E-3       145,52        0,01199       2,57           
4502,5000     0,52283       37,83         4,327E-1      119,66        2,224E-3      137,76        0,01122       5,44           
4532,4500     0,47435       32,08         4,149E-1      109,72        2,251E-3      130,84        0,00946       3,45           
4562,4000     0,42735       28,50         4,184E-1      99,86         2,335E-3      122,48        0,00815       -7,51          
4592,3500     0,39107       26,92         4,335E-1      90,52         2,415E-3      113,40        0,00851       -21,60         
