!    13.04.2021   17:18:41 
! Ref Plane: 0,000 mm
# MHZ S MA R  50
!
10,0000       0,98945       -3,13         9,393E-4      3,75          9,109E-6      101,35        0,00607       -8,92          
39,9500       0,98421       -10,95        1,527E-2      -19,94        2,297E-5      175,78        0,00623       -30,73         
69,9000       0,98457       -19,06        4,449E-2      -39,23        6,318E-5      158,43        0,00665       -52,64         
99,8500       0,98318       -27,17        8,634E-2      -55,30        1,152E-4      146,40        0,00724       -73,54         
129,8000      0,97927       -35,49        1,415E-1      -72,25        2,024E-4      134,96        0,00784       -92,52         
159,7500      0,97104       -43,26        1,838E-1      -89,51        2,922E-4      120,10        0,00846       -111,14        
189,7000      0,95961       -50,65        2,15E-1       -107,76       4,224E-4      104,84        0,009         -128,43        
219,6500      0,95107       -58,66        2,88E-1       -122,23       5,437E-4      92,37         0,00944       -145,31        
249,6000      0,94196       -66,81        3,799E-1      -135,58       6,776E-4      80,72         0,00988       -161,87        
279,5500      0,92775       -73,93        4,406E-1      -151,28       8,268E-4      70,09         0,01022       -177,93        
309,5000      0,90907       -80,36        4,771E-1      -167,59       9,965E-4      57,15         0,01046       167,27         
339,4500      0,89247       -87,35        5,545E-1      176,90        1,146E-3      44,22         0,01036       153,10         
369,4000      0,87204       -93,95        6,317E-1      161,18        1,299E-3      30,57         0,00994       138,69         
399,3500      0,85378       -100,29       6,965E-1      146,25        1,461E-3      18,15         0,00943       125,29         
429,3000      0,84109       -105,40       7,071E-1      131,19        1,573E-3      5,36          0,00866       113,67         
459,2500      0,83138       -109,79       6,953E-1      116,92        1,674E-3      -6,34         0,00752       102,94         
489,2000      0,80832       -116,53       8,192E-1      103,17        1,757E-3      -17,71        0,00643       92,78          
519,1500      0,7931        -122,38       8,933E-1      90,92         1,831E-3      -29,19        0,00537       84,28          
549,1000      0,78452       -126,83       8,783E-1      78,04         1,881E-3      -40,22        0,00425       79,99          
579,0500      0,78239       -131,04       8,432E-1      65,67         1,935E-3      -50,26        0,00319       81,58          
609,0000      0,78435       -135,40       8,076E-1      54,46         1,952E-3      -60,24        0,00244       92,15          
638,9500      0,77447       -140,67       8,449E-1      43,50         1,961E-3      -69,28        0,00227       111,29         
668,9000      0,76114       -146,34       8,972E-1      32,74         1,966E-3      -78,10        0,00259       131,54         
698,8500      0,75902       -150,94       8,874E-1      22,51         1,977E-3      -86,00        0,00312       144,29         
728,8000      0,76298       -154,98       8,252E-1      12,42         2,004E-3      -94,44        0,0037        149,01         
758,7500      0,74843       -160,60       8,853E-1      2,83          2,023E-3      -102,31       0,00437       147,92         
788,7000      0,72979       -166,56       9,522E-1      -7,17         2,044E-3      -110,25       0,00507       143,68         
818,6500      0,72381       -171,55       9,344E-1      -16,72        2,066E-3      -117,89       0,00581       139,35         
848,6000      0,7245        -175,77       8,769E-1      -26,24        2,069E-3      -125,50       0,00643       134,41         
878,5500      0,7232        -179,81       8,126E-1      -35,26        2,061E-3      -132,66       0,00696       128,94         
908,5000      0,71319       175,27        8,222E-1      -44,09        2,087E-3      -139,53       0,00754       124,53         
938,4500      0,69234       169,50        8,699E-1      -53,25        2,111E-3      -146,94       0,00804       121,05         
968,4000      0,67612       164,25        8,795E-1      -62,03        2,153E-3      -153,82       0,00839       117,06         
998,3500      0,67041       159,49        8,511E-1      -70,49        2,187E-3      -160,34       0,00884       111,90         
1028,3000     0,65467       154,22        8,591E-1      -79,04        2,22E-3       -167,39       0,0094        107,69         
1058,2500     0,63285       148,09        8,965E-1      -87,87        2,253E-3      -174,84       0,00976       105,09         
1088,2000     0,61616       142,12        8,994E-1      -96,41        2,272E-3      177,97        0,00975       102,43         
1118,1500     0,60758       137,29        8,581E-1      -104,47       2,297E-3      171,03        0,00967       98,35          
1148,1000     0,6018        132,60        8,036E-1      -112,39       2,353E-3      163,79        0,00992       93,89          
1178,0500     0,57788       125,88        8,169E-1      -121,12       2,39E-3       156,87        0,01029       92,00          
1208,0000     0,53737       117,85        8,793E-1      -130,86       2,445E-3      149,73        0,0101        91,15          
1237,9500     0,50757       110,87        8,837E-1      -139,93       2,475E-3      142,09        0,00956       88,24          
1267,9000     0,495         105,07        8,407E-1      -148,17       2,488E-3      134,15        0,00945       82,05          
1297,8500     0,47936       99,06         8,015E-1      -156,04       2,522E-3      127,08        0,00996       78,34          
1327,8000     0,44701       91,46         8,094E-1      -165,21       2,553E-3      119,51        0,01049       78,19          
1357,7500     0,39957       79,91         8,372E-1      -173,98       2,588E-3      111,69        0,01057       79,08          
1387,7000     0,35732       69,91         8,424E-1      176,59        2,629E-3      104,02        0,01022       78,09          
1417,6500     0,33406       60,33         8,131E-1      168,96        2,635E-3      95,99         0,01002       75,11          
1447,6000     0,298         48,69         8,034E-1      160,12        2,63E-3       87,77         0,01027       73,22          
1477,5500     0,26061       33,59         8,011E-1      151,44        2,603E-3      80,20         0,0106        73,30          
1507,5000     0,20995       17,40         8,139E-1      141,55        2,596E-3      72,42         0,01071       73,01          
1537,4500     0,1853        -1,35         8,052E-1      133,31        2,595E-3      65,18         0,01073       71,26          
1567,4000     0,15974       -29,02        8,33E-1       122,88        2,61E-3       57,64         0,01091       68,63          
1597,3500     0,16419       -54,11        8,525E-1      113,14        2,583E-3      50,09         0,01108       67,27          
1627,3000     0,18128       -72,27        8,435E-1      103,75        2,548E-3      42,52         0,01105       65,99          
1657,2500     0,20391       -83,72        8,155E-1      95,46         2,522E-3      35,07         0,01097       63,29          
1687,2000     0,23146       -97,47        8,196E-1      86,55         2,489E-3      27,80         0,01112       59,87          
1717,1500     0,25981       -109,71       8,364E-1      77,56         2,45E-3       20,45         0,01138       57,32          
1747,1000     0,28692       -120,11       8,438E-1      69,16         2,426E-3      13,72         0,01153       55,29          
1777,0500     0,31206       -127,60       8,306E-1      60,92         2,392E-3      7,11          0,01152       53,35          
1807,0000     0,33465       -134,61       8,177E-1      52,90         2,364E-3      0,68          0,0115        50,94          
1836,9500     0,35503       -141,87       8,186E-1      44,93         2,331E-3      -6,65         0,01144       48,84          
1866,9000     0,37302       -148,34       8,149E-1      37,23         2,303E-3      -12,92        0,01127       46,81          
1896,8500     0,38763       -153,75       8,032E-1      29,56         2,283E-3      -19,69        0,01097       44,82          
1926,8000     0,40          -158,68       7,914E-1      22,02         2,274E-3      -26,07        0,01067       42,29          
1956,7500     0,40966       -164,07       7,947E-1      14,53         2,25E-3       -32,83        0,01046       39,19          
1986,7000     0,41736       -169,03       7,977E-1      7,05          2,222E-3      -39,11        0,01037       36,66          
2016,6500     0,42398       -173,27       7,938E-1      -0,32         2,218E-3      -44,81        0,01022       35,25          
2046,6000     0,43014       -176,90       7,843E-1      -7,65         2,194E-3      -51,59        0,00995       34,54          
2076,5500     0,4338        179,54        7,792E-1      -15,08        2,172E-3      -57,74        0,0096        33,53          
2106,5000     0,43677       175,95        7,81E-1       -22,35        2,193E-3      -64,60        0,00926       32,38          
2136,4500     0,43928       172,59        7,802E-1      -29,65        2,175E-3      -71,24        0,009         31,14          
2166,4000     0,43971       169,64        7,761E-1      -37,10        2,157E-3      -77,17        0,0087        30,32          
2196,3500     0,43869       167,23        7,688E-1      -44,59        2,157E-3      -84,04        0,00845       30,39          
2226,3000     0,43753       164,91        7,632E-1      -52,07        2,158E-3      -89,85        0,00824       30,95          
2256,2500     0,43697       162,28        7,631E-1      -59,62        2,145E-3      -96,03        0,00808       32,02          
2286,2000     0,43706       160,11        7,634E-1      -67,13        2,141E-3      -102,64       0,00783       33,29          
2316,1500     0,43573       158,38        7,586E-1      -74,82        2,145E-3      -109,50       0,00764       34,15          
2346,1000     0,4303        157,10        7,446E-1      -83,04        2,153E-3      -115,90       0,00747       34,85          
2376,0500     0,42859       156,22        7,29E-1       -91,13        2,168E-3      -123,07       0,00737       35,68          
2406,0000     0,43019       155,10        7,261E-1      -99,07        2,171E-3      -129,44       0,00742       36,02          
2435,9500     0,43122       153,87        7,224E-1      -106,78       2,142E-3      -136,81       0,0075        36,15          
2465,9000     0,43636       153,16        7,09E-1       -114,57       2,156E-3      -143,29       0,00765       36,01          
2495,8500     0,44405       152,54        7,045E-1      -122,42       2,137E-3      -150,09       0,00796       36,17          
2525,8000     0,45106       151,37        7,04E-1       -129,88       2,132E-3      -156,73       0,0082        36,83          
2555,7500     0,46033       150,06        7,031E-1      -137,36       2,132E-3      -164,19       0,00823       37,51          
2585,7000     0,47143       148,97        6,986E-1      -145,24       2,138E-3      -171,25       0,00824       36,52          
2615,6500     0,48249       147,95        6,87E-1       -152,93       2,105E-3      -178,63       0,0082        35,06          
2645,6000     0,49557       146,64        6,695E-1      -160,46       2,087E-3      175,35        0,00819       33,59          
2675,5500     0,50755       144,62        6,776E-1      -168,22       2,049E-3      168,56        0,00822       31,81          
2705,5000     0,51697       142,34        7,006E-1      -175,87       2,037E-3      161,28        0,00813       29,32          
2735,4500     0,52781       140,28        7,052E-1      176,45        2,018E-3      154,17        0,00812       26,36          
2765,4000     0,5413        138,48        6,921E-1      168,76        2,00E-3       147,31        0,00815       24,01          
2795,3500     0,55614       136,66        6,706E-1      161,28        1,966E-3      140,80        0,00808       22,85          
2825,3000     0,56862       134,62        6,559E-1      153,97        1,95E-3       133,85        0,00788       21,74          
2855,2500     0,57703       132,00        6,664E-1      146,18        1,909E-3      127,57        0,0076        20,17          
2885,2000     0,58495       129,35        6,746E-1      138,44        1,881E-3      120,83        0,00736       17,74          
2915,1500     0,59328       126,82        6,738E-1      130,92        1,847E-3      114,34        0,00722       15,54          
2945,1000     0,60081       124,23        6,70E-1       123,50        1,831E-3      107,45        0,00699       15,29          
2975,0500     0,60747       121,66        6,642E-1      116,23        1,804E-3      100,48        0,00665       15,88          
3005,0000     0,61338       119,14        6,556E-1      108,92        1,787E-3      94,71         0,00623       15,45          
3034,9500     0,61834       116,67        6,461E-1      101,68        1,775E-3      88,72         0,00586       15,26          
3064,9000     0,62225       114,16        6,343E-1      94,59         1,732E-3      82,28         0,00549       15,65          
3094,8500     0,62298       111,46        6,359E-1      87,37         1,704E-3      75,94         0,00511       15,21          
3124,8000     0,62146       108,68        6,44E-1       80,06         1,712E-3      69,62         0,00489       13,95          
3154,7500     0,61918       105,96        6,449E-1      72,94         1,682E-3      63,38         0,00479       14,59          
3184,7000     0,61693       103,40        6,424E-1      65,83         1,695E-3      56,48         0,00474       16,23          
3214,6500     0,61472       101,02        6,363E-1      58,62         1,646E-3      50,60         0,0047        19,27          
3244,6000     0,61166       98,79         6,284E-1      51,46         1,652E-3      44,15         0,00459       22,88          
3274,5500     0,60448       96,36         6,301E-1      44,29         1,63E-3       38,28         0,00446       26,28          
3304,5000     0,59577       93,89         6,373E-1      36,97         1,609E-3      31,60         0,00449       29,92          
3334,4500     0,58688       91,61         6,419E-1      29,63         1,591E-3      25,63         0,00445       33,56          
3364,4000     0,57653       89,48         6,424E-1      22,31         1,606E-3      18,11         0,00433       37,24          
3394,3500     0,56626       87,52         6,419E-1      14,79         1,592E-3      12,00         0,00416       39,31          
3424,3000     0,55592       85,74         6,405E-1      7,26          1,604E-3      5,92          0,00422       38,21          
3454,2500     0,54582       84,21         6,356E-1      -0,17         1,571E-3      -0,86         0,00446       39,08          
3484,2000     0,5352        82,80         6,319E-1      -7,69         1,559E-3      -8,15         0,00469       41,09          
3514,1500     0,52288       81,51         6,349E-1      -15,22        1,541E-3      -14,34        0,0047        43,70          
3544,1000     0,50816       80,32         6,447E-1      -22,76        1,528E-3      -21,11        0,00468       43,52          
3574,0500     0,49423       79,43         6,509E-1      -30,45        1,532E-3      -28,23        0,00479       42,91          
3604,0000     0,48385       78,85         6,513E-1      -38,13        1,508E-3      -35,00        0,00497       44,74          
3633,9500     0,47729       78,45         6,461E-1      -45,64        1,487E-3      -41,31        0,00508       46,43          
3663,9000     0,47461       78,13         6,334E-1      -52,93        1,476E-3      -48,61        0,00521       47,26          
3693,8500     0,46932       78,01         6,306E-1      -60,49        1,442E-3      -55,25        0,00547       47,71          
3723,8000     0,46233       78,29         6,397E-1      -68,41        1,414E-3      -62,17        0,0057        50,13          
3753,7500     0,45844       78,76         6,469E-1      -76,25        1,415E-3      -69,13        0,0058        52,79          
3783,7000     0,45857       79,06         6,47E-1       -83,92        1,377E-3      -75,98        0,00578       54,30          
3813,6500     0,46186       79,17         6,457E-1      -91,60        1,364E-3      -82,06        0,00584       53,27          
3843,6000     0,46764       79,14         6,44E-1       -99,06        1,335E-3      -88,53        0,00601       52,58          
3873,5500     0,4749        78,93         6,411E-1      -106,47       1,297E-3      -96,09        0,0063        53,26          
3903,5000     0,48346       78,51         6,375E-1      -113,86       1,291E-3      -101,98       0,00652       51,75          
3933,4500     0,49289       77,97         6,366E-1      -121,17       1,25E-3       -108,91       0,00684       49,10          
3963,4000     0,50311       77,33         6,366E-1      -128,53       1,223E-3      -114,92       0,00738       47,60          
3993,3500     0,51401       76,56         6,375E-1      -136,01       1,218E-3      -120,93       0,00791       47,65          
4023,3000     0,52521       75,50         6,379E-1      -143,28       1,189E-3      -127,22       0,00815       47,25          
4053,2500     0,53575       74,10         6,374E-1      -150,28       1,153E-3      -133,20       0,00823       45,35          
4083,2000     0,54542       72,39         6,362E-1      -157,05       1,123E-3      -138,65       0,00847       42,66          
4113,1500     0,55498       70,61         6,36E-1       -163,80       1,108E-3      -144,73       0,00887       40,60          
4143,1000     0,56538       69,00         6,409E-1      -170,88       1,101E-3      -150,45       0,00913       38,23          
4173,0500     0,57456       67,24         6,463E-1      -178,01       1,092E-3      -156,65       0,0093        34,93          
4203,0000     0,58246       65,27         6,517E-1      175,06        1,089E-3      -162,32       0,00954       31,06          
4232,9500     0,58897       63,21         6,589E-1      168,35        1,067E-3      -168,62       0,00995       27,81          
4262,9000     0,59356       60,97         6,659E-1      161,64        1,074E-3      -173,69       0,01023       25,59          
4292,8500     0,59468       58,50         6,708E-1      154,61        1,074E-3      -178,84       0,01029       22,78          
4322,8000     0,59206       55,83         6,727E-1      147,26        1,07E-3       174,91        0,01034       18,32          
4352,7500     0,58783       53,17         6,764E-1      139,75        1,062E-3      167,91        0,01058       13,67          
4382,7000     0,58467       50,71         6,883E-1      132,30        1,053E-3      161,51        0,01082       10,61          
4412,6500     0,58371       48,50         7,114E-1      125,13        1,059E-3      157,31        0,01083       7,89           
4442,6000     0,57805       46,12         7,326E-1      117,62        1,102E-3      151,75        0,01073       3,81           
4472,5500     0,56094       43,46         7,41E-1       109,09        1,098E-3      146,64        0,01075       -1,06          
4502,5000     0,52413       40,76         7,221E-1      98,87         1,126E-3      138,98        0,01072       -5,54          
4532,4500     0,48478       38,83         7,072E-1      88,71         1,126E-3      133,14        0,01043       -10,89         
4562,4000     0,45893       37,83         7,209E-1      79,46         1,162E-3      125,80        0,01025       -16,94         
4592,3500     0,44072       37,20         7,445E-1      70,13         1,223E-3      118,10        0,01036       -23,10         
